time	V(vg)	(1/72.25u)*(d(Ig(M1))/d(V(vg)))	(1/72.25u)*(d(Ig(M2))/d(V(vg)))
0.000000000000000e+000	-1.999994e+000	-5.697873e-011	-1.226008e-013
2.039966079992171e-003	-1.993874e+000	-5.416141e-011	0.000000e+000
4.087966079992038e-003	-1.987730e+000	-5.423721e-011	0.000000e+000
6.135966079992310e-003	-1.981586e+000	-5.441986e-011	0.000000e+000
8.183966079992581e-003	-1.975442e+000	-5.460358e-011	0.000000e+000
1.023196607999285e-002	-1.969298e+000	-5.477149e-011	0.000000e+000
1.227996607999313e-002	-1.963154e+000	-5.495467e-011	0.000000e+000
1.432796607999340e-002	-1.957010e+000	-5.515312e-011	0.000000e+000
1.637596607999302e-002	-1.950866e+000	-5.533577e-011	0.000000e+000
1.842396607999151e-002	-1.944722e+000	-5.550422e-011	0.000000e+000
2.047196607999001e-002	-1.938578e+000	-5.568740e-011	0.000000e+000
2.251996607998850e-002	-1.932434e+000	-5.587059e-011	0.000000e+000
2.456796607998700e-002	-1.926290e+000	-5.606903e-011	0.000000e+000
2.661596607998550e-002	-1.920146e+000	-5.625167e-011	0.000000e+000
2.866396607998399e-002	-1.914002e+000	-5.642013e-011	0.000000e+000
3.071196607998249e-002	-1.907858e+000	-5.661858e-011	0.000000e+000
3.275996607998360e-002	-1.901714e+000	-5.681703e-011	0.000000e+000
3.480796607998565e-002	-1.895570e+000	-5.696968e-011	0.000000e+000
3.685596607998769e-002	-1.889426e+000	-5.715231e-011	0.000000e+000
3.890396607998974e-002	-1.883282e+000	-5.736657e-011	0.000000e+000
4.095196607999179e-002	-1.877138e+000	-5.754976e-011	0.000000e+000
4.299996607999384e-002	-1.870994e+000	-5.773238e-011	0.000000e+000
4.504796607999589e-002	-1.864850e+000	-5.791612e-011	0.000000e+000
4.709596607999794e-002	-1.858706e+000	-5.811457e-011	0.000000e+000
4.914396607999998e-002	-1.852562e+000	-5.831302e-011	0.000000e+000
5.119196608000203e-002	-1.846418e+000	-5.848093e-011	0.000000e+000
5.323996608000408e-002	-1.840274e+000	-5.867881e-011	0.000000e+000
5.528796608000613e-002	-1.834130e+000	-5.887783e-011	0.000000e+000
5.733596608000818e-002	-1.827986e+000	-5.904574e-011	0.000000e+000
5.938396608001022e-002	-1.821842e+000	-5.924419e-011	0.000000e+000
6.143196608001227e-002	-1.815698e+000	-5.944264e-011	0.000000e+000
6.347996608001431e-002	-1.809554e+000	-5.962524e-011	0.000000e+000
6.552796608001636e-002	-1.803410e+000	-5.980900e-011	0.000000e+000
6.757596608001841e-002	-1.797266e+000	-5.999219e-011	0.000000e+000
6.962396608002046e-002	-1.791122e+000	-6.020590e-011	0.000000e+000
7.167196608002251e-002	-1.784978e+000	-6.040435e-011	0.000000e+000
7.371996608002455e-002	-1.778834e+000	-6.057168e-011	0.000000e+000
7.576796608002660e-002	-1.772690e+000	-6.077071e-011	0.000000e+000
7.781596608002865e-002	-1.766546e+000	-6.096916e-011	0.000000e+000
7.986396608003070e-002	-1.760402e+000	-6.116761e-011	0.000000e+000
8.191196608003275e-002	-1.754258e+000	-6.136605e-011	0.000000e+000
8.395996608003480e-002	-1.748114e+000	-6.154864e-011	0.000000e+000
8.600796608003684e-002	-1.741970e+000	-6.173242e-011	0.000000e+000
8.805596608003889e-002	-1.735826e+000	-6.193087e-011	0.000000e+000
9.010396608004094e-002	-1.729682e+000	-6.214458e-011	0.000000e+000
9.215196608004299e-002	-1.723538e+000	-6.234303e-011	0.000000e+000
9.419996608004504e-002	-1.717394e+000	-6.251034e-011	0.000000e+000
9.624796608004708e-002	-1.711250e+000	-6.270939e-011	0.000000e+000
9.829596608004913e-002	-1.705106e+000	-6.292310e-011	0.000000e+000
1.003439660800512e-001	-1.698962e+000	-6.310567e-011	0.000000e+000
1.023919660800532e-001	-1.692818e+000	-6.328947e-011	0.000000e+000
1.044399660800553e-001	-1.686674e+000	-6.350318e-011	0.000000e+000
1.064879660800573e-001	-1.680530e+000	-6.370163e-011	0.000000e+000
1.085359660800594e-001	-1.674386e+000	-6.388481e-011	-1.068563e-013
1.105839660800614e-001	-1.668242e+000	-6.408263e-011	-4.884813e-013
1.126319660800635e-001	-1.662098e+000	-6.428170e-011	-7.632594e-013
1.146799660800655e-001	-1.655954e+000	-6.448015e-011	-7.785246e-013
1.167279660800676e-001	-1.649810e+000	-6.487705e-011	-8.243201e-013
1.187759660800696e-001	-1.643666e+000	-6.538080e-011	-8.701157e-013
1.208239660800717e-001	-1.637522e+000	-6.570073e-011	-9.006373e-013
1.228719660800737e-001	-1.631378e+000	-6.591508e-011	-9.311764e-013
1.249199660800758e-001	-1.625234e+000	-6.612879e-011	-9.769720e-013
1.269679660800778e-001	-1.619090e+000	-6.637303e-011	-1.022768e-012
1.290159660800798e-001	-1.612946e+000	-6.658675e-011	-1.053298e-012
1.310639660800819e-001	-1.606802e+000	-6.679981e-011	-1.099083e-012
1.331119660800839e-001	-1.600658e+000	-6.704470e-011	-1.144889e-012
1.351599660800860e-001	-1.594514e+000	-6.728895e-011	-1.190685e-012
1.372079660800880e-001	-1.588370e+000	-6.751792e-011	-1.251745e-012
1.392559660800901e-001	-1.582226e+000	-6.774690e-011	-1.312806e-012
1.413039660800921e-001	-1.576082e+000	-6.797522e-011	-1.373854e-012
1.433519660800942e-001	-1.569938e+000	-6.822012e-011	-1.434928e-012
1.453999660800962e-001	-1.563794e+000	-6.844910e-011	-1.480723e-012
1.474479660800983e-001	-1.557650e+000	-6.867741e-011	-1.526504e-012
1.494959660801003e-001	-1.551506e+000	-6.893759e-011	-1.602845e-012
1.515439660801024e-001	-1.545362e+000	-6.918183e-011	-1.679171e-012
1.535919660801044e-001	-1.539218e+000	-6.944134e-011	-1.770762e-012
1.556399660801065e-001	-1.533074e+000	-6.968558e-011	-1.847088e-012
1.576879660801085e-001	-1.526930e+000	-6.991388e-011	-1.923395e-012
1.597359660801106e-001	-1.520786e+000	-7.017407e-011	-1.999740e-012
1.617839660801126e-001	-1.514642e+000	-7.043357e-011	-2.076065e-012
1.638319660801147e-001	-1.508498e+000	-7.069308e-011	-2.182922e-012
1.658799660801167e-001	-1.502354e+000	-7.093733e-011	-2.289778e-012
1.679279660801188e-001	-1.496210e+000	-7.119614e-011	-2.396611e-012
1.699759660801208e-001	-1.490066e+000	-7.148687e-011	-2.472960e-012
1.720239660801229e-001	-1.483922e+000	-7.174638e-011	-2.579817e-012
1.740719660801249e-001	-1.477778e+000	-7.200589e-011	-2.717203e-012
1.761199660801270e-001	-1.471634e+000	-7.228066e-011	-2.854590e-012
1.781679660801290e-001	-1.465490e+000	-7.257000e-011	-2.961418e-012
1.802159660801311e-001	-1.459346e+000	-7.284547e-011	-3.083568e-012
1.822639660801331e-001	-1.453202e+000	-7.312025e-011	-3.251485e-012
1.843119660801351e-001	-1.447058e+000	-7.342555e-011	-3.388872e-012
1.863599660801372e-001	-1.440914e+000	-7.370032e-011	-3.541523e-012
1.884079660801392e-001	-1.434770e+000	-7.398965e-011	-3.724670e-012
1.904559660801413e-001	-1.428626e+000	-7.431093e-011	-3.892623e-012
1.925039660801433e-001	-1.422482e+000	-7.463150e-011	-4.060540e-012
1.945519660801454e-001	-1.416338e+000	-7.492154e-011	-4.243722e-012
1.965999660801474e-001	-1.410194e+000	-7.522684e-011	-4.457435e-012
1.986479660801495e-001	-1.404050e+000	-7.556194e-011	-4.671102e-012
2.006959660801515e-001	-1.397906e+000	-7.589851e-011	-4.884860e-012
2.027439660801536e-001	-1.391762e+000	-7.623435e-011	-5.113838e-012
2.047919660801556e-001	-1.385618e+000	-7.655417e-011	-5.358029e-012
2.068399660801577e-001	-1.379474e+000	-7.690601e-011	-5.632854e-012
2.088879660801597e-001	-1.373330e+000	-7.727238e-011	-5.892362e-012
2.109359660801618e-001	-1.367186e+000	-7.763874e-011	-6.182401e-012
2.129839660801638e-001	-1.361042e+000	-7.800511e-011	-6.487705e-012
2.150319660801659e-001	-1.354898e+000	-7.838598e-011	-6.792942e-012
2.170799660801679e-001	-1.348754e+000	-7.878363e-011	-7.144108e-012
2.191279660801700e-001	-1.342610e+000	-7.918053e-011	-7.495207e-012
2.211759660801720e-001	-1.336466e+000	-7.959269e-011	-7.876837e-012
2.232239660801741e-001	-1.330322e+000	-8.000485e-011	-8.273732e-012
2.252719660801761e-001	-1.324178e+000	-8.043149e-011	-8.670542e-012
2.273199660801782e-001	-1.318034e+000	-8.090549e-011	-9.113317e-012
2.293679660801802e-001	-1.311890e+000	-8.137871e-011	-9.586538e-012
2.314159660801823e-001	-1.305746e+000	-8.183667e-011	-1.009029e-011
2.334639660801843e-001	-1.299602e+000	-8.230989e-011	-1.059404e-011
2.355119660801864e-001	-1.293458e+000	-8.282810e-011	-1.114348e-011
2.375599660801884e-001	-1.287314e+000	-8.337845e-011	-1.175419e-011
2.396079660801904e-001	-1.281170e+000	-8.392800e-011	-1.234954e-011
2.416559660801925e-001	-1.275026e+000	-8.447755e-011	-1.299067e-011
2.437039660801945e-001	-1.268882e+000	-8.505762e-011	-1.370814e-011
2.457519660801966e-001	-1.262738e+000	-8.568267e-011	-1.444073e-011
2.477999660801986e-001	-1.256594e+000	-8.632463e-011	-1.518886e-011
2.498479660802007e-001	-1.250450e+000	-8.699630e-011	-1.601318e-011
2.518959660802027e-001	-1.244306e+000	-8.766797e-011	-1.689856e-011
2.539439660802048e-001	-1.238162e+000	-8.838543e-011	-1.782974e-011
2.559919660802068e-001	-1.232018e+000	-8.914783e-011	-1.880653e-011
2.580399660802089e-001	-1.225874e+000	-8.994248e-011	-1.982948e-011
2.600879660802109e-001	-1.219730e+000	-9.076680e-011	-2.094384e-011
2.621359660802130e-001	-1.213586e+000	-9.162077e-011	-2.211904e-011
2.641839660802150e-001	-1.207442e+000	-9.256810e-011	-2.335574e-011
2.662319660802170e-001	-1.201298e+000	-9.351454e-011	-2.469907e-011
2.682799660802191e-001	-1.195154e+000	-9.449151e-011	-2.610347e-011
2.703279660802211e-001	-1.189010e+000	-9.556007e-011	-2.759946e-011
2.723759660802232e-001	-1.182866e+000	-9.665823e-011	-2.918676e-011
2.744239660802252e-001	-1.176722e+000	-9.783459e-011	-3.086621e-011
2.764719660802273e-001	-1.170578e+000	-9.908633e-011	-3.266750e-011
2.785199660802293e-001	-1.164434e+000	-1.003839e-010	-3.456038e-011
2.805679660802314e-001	-1.158290e+000	-1.017730e-010	-3.660592e-011
2.826159660802334e-001	-1.152146e+000	-1.032222e-010	-3.877320e-011
2.846639660802355e-001	-1.146002e+000	-1.047497e-010	-4.106335e-011
2.867119660802375e-001	-1.139858e+000	-1.063831e-010	-4.352105e-011
2.887599660802396e-001	-1.133714e+000	-1.081233e-010	-4.613140e-011
2.908079660802416e-001	-1.127570e+000	-1.099551e-010	-4.889440e-011
2.928559660802437e-001	-1.121426e+000	-1.118927e-010	-5.185534e-011
2.949039660802457e-001	-1.115282e+000	-1.139546e-010	-5.501574e-011
2.969519660802478e-001	-1.109138e+000	-1.161375e-010	-5.834355e-011
2.989999660802498e-001	-1.102994e+000	-1.184579e-010	-6.188507e-011
3.010479660802519e-001	-1.096850e+000	-1.209308e-010	-6.568610e-011
3.030959660802539e-001	-1.090706e+000	-1.235552e-010	-6.973070e-011
3.051439660802560e-001	-1.084562e+000	-1.263347e-010	-7.402089e-011
3.071919660802580e-001	-1.078418e+000	-1.292961e-010	-7.856992e-011
3.092399660802601e-001	-1.072274e+000	-1.324255e-010	-8.342425e-011
3.112879660802621e-001	-1.066130e+000	-1.357686e-010	-8.858388e-011
3.133359660802642e-001	-1.059986e+000	-1.393240e-010	-9.403264e-011
3.153839660802662e-001	-1.053842e+000	-1.430959e-010	-9.983433e-011
3.174319660802683e-001	-1.047698e+000	-1.471106e-010	-1.060167e-010
3.194799660802703e-001	-1.041554e+000	-1.513529e-010	-1.125644e-010
3.215279660802723e-001	-1.035410e+000	-1.558576e-010	-1.195112e-010
3.235759660802744e-001	-1.029266e+000	-1.606661e-010	-1.268537e-010
3.256239660802764e-001	-1.023122e+000	-1.657494e-010	-1.346084e-010
3.276719660802785e-001	-1.016978e+000	-1.711228e-010	-1.428211e-010
3.297199660802805e-001	-1.010834e+000	-1.768302e-010	-1.515055e-010
3.317679660802826e-001	-1.004690e+000	-1.828617e-010	-1.606814e-010
3.338159660802846e-001	-9.985461e-001	-1.892425e-010	-1.703442e-010
3.358639660802867e-001	-9.924021e-001	-1.959888e-010	-1.804947e-010
3.379119660802887e-001	-9.862581e-001	-2.031033e-010	-1.911812e-010
3.399599660802908e-001	-9.801141e-001	-2.105680e-010	-2.024164e-010
3.420079660802928e-001	-9.739701e-001	-2.184601e-010	-2.141706e-010
3.440559660802949e-001	-9.678261e-001	-2.267633e-010	-2.264580e-010
3.461039660802969e-001	-9.616821e-001	-2.354338e-010	-2.393112e-010
3.481519660802990e-001	-9.555381e-001	-2.445330e-010	-2.527152e-010
3.501999660803010e-001	-9.493941e-001	-2.540585e-010	-2.666676e-010
3.522479660803031e-001	-9.432501e-001	-2.639796e-010	-2.811376e-010
3.542959660803051e-001	-9.371061e-001	-2.743141e-010	-2.961432e-010
3.563439660803072e-001	-9.309621e-001	-2.850621e-010	-3.116541e-010
3.583919660803092e-001	-9.248181e-001	-2.961904e-010	-3.276215e-010
3.604399660803113e-001	-9.186741e-001	-3.077309e-010	-3.440621e-010
3.624879660803133e-001	-9.125301e-001	-3.196057e-010	-3.609283e-010
3.645359660803154e-001	-9.063861e-001	-3.318330e-010	-3.782084e-010
3.665839660803174e-001	-9.002421e-001	-3.443979e-010	-3.957958e-010
3.686319660803195e-001	-8.940981e-001	-3.572206e-010	-4.137018e-010
3.706799660803215e-001	-8.879541e-001	-3.703182e-010	-4.318827e-010
3.727279660803236e-001	-8.818101e-001	-3.836581e-010	-4.502140e-010
3.747759660803256e-001	-8.756661e-001	-3.971677e-010	-4.687000e-010
3.768239660803276e-001	-8.695221e-001	-4.108167e-010	-4.872953e-010
3.788719660803297e-001	-8.633781e-001	-4.245859e-010	-5.058883e-010
3.809199660803317e-001	-8.572341e-001	-4.383835e-010	-5.244330e-010
3.829679660803338e-001	-8.510901e-001	-4.521985e-010	-5.428885e-010
3.850159660803358e-001	-8.449461e-001	-4.659851e-010	-5.611483e-010
3.870639660803379e-001	-8.388021e-001	-4.796627e-010	-5.791917e-010
3.891119660803399e-001	-8.326581e-001	-4.931877e-010	-5.969299e-010
3.911599660803420e-001	-8.265141e-001	-5.065423e-010	-6.142987e-010
3.932079660803440e-001	-8.203701e-001	-5.196550e-010	-6.312888e-010
3.952559660803461e-001	-8.142261e-001	-5.324803e-010	-6.477935e-010
3.973039660803481e-001	-8.080821e-001	-5.449977e-010	-6.637761e-010
3.993519660803502e-001	-8.019381e-001	-5.571335e-010	-6.792092e-010
4.013999660803522e-001	-7.957941e-001	-5.688392e-010	-6.940589e-010
4.034479660803543e-001	-7.896501e-001	-5.801354e-010	-7.083013e-010
4.054959660803563e-001	-7.835061e-001	-5.910070e-010	-7.218602e-010
4.075439660803584e-001	-7.773621e-001	-6.013568e-010	-7.347440e-010
4.095919660803604e-001	-7.712181e-001	-6.111846e-010	-7.469220e-010
4.116399660803625e-001	-7.650741e-001	-6.205116e-010	-7.583861e-010
4.136879660803645e-001	-7.589301e-001	-6.292921e-010	-7.691670e-010
4.157359660803666e-001	-7.527861e-001	-6.375200e-010	-7.792115e-010
4.177839660803686e-001	-7.466421e-001	-6.452289e-010	-7.885385e-010
4.198319660803707e-001	-7.404981e-001	-6.523699e-010	-7.971442e-010
4.218799660803727e-001	-7.343541e-001	-6.589491e-010	-8.050668e-010
4.239279660803748e-001	-7.282101e-001	-6.649974e-010	-8.122911e-010
4.259759660803768e-001	-7.220661e-001	-6.705234e-010	-8.188246e-010
4.280239660803789e-001	-7.159221e-001	-6.755303e-010	-8.247323e-010
4.300719660803809e-001	-7.097781e-001	-6.799997e-010	-8.299795e-010
4.321199660803829e-001	-7.036341e-001	-6.839687e-010	-8.346048e-010
4.341679660803850e-001	-6.974901e-001	-6.874830e-010	-8.386541e-010
4.362159660803870e-001	-6.913461e-001	-6.905513e-010	-8.421346e-010
4.382639660803891e-001	-6.852021e-001	-6.931583e-010	-8.450461e-010
4.403119660803911e-001	-6.790581e-001	-6.953412e-010	-8.474580e-010
4.423599660803932e-001	-6.729141e-001	-6.971153e-010	-8.493856e-010
4.444079660803952e-001	-6.667701e-001	-6.985044e-010	-8.508357e-010
4.464559660803973e-001	-6.606261e-001	-6.995272e-010	-8.518432e-010
4.485039660803993e-001	-6.544821e-001	-7.001955e-010	-8.524192e-010
4.505519660804014e-001	-6.483381e-001	-7.005618e-010	-8.526024e-010
4.525999660804034e-001	-6.421941e-001	-7.006110e-010	-8.524233e-010
4.546479660804055e-001	-6.360501e-001	-7.003668e-010	-8.519043e-010
4.566959660804075e-001	-6.299061e-001	-6.998630e-010	-8.510495e-010
4.587439660804096e-001	-6.237621e-001	-6.990964e-010	-8.498852e-010
4.607919660804116e-001	-6.176181e-001	-6.981042e-010	-8.484350e-010
4.628399660804137e-001	-6.114741e-001	-6.968863e-010	-8.467294e-010
4.648879660804157e-001	-6.053301e-001	-6.954514e-010	-8.447755e-010
4.669359660804178e-001	-5.991861e-001	-6.938452e-010	-8.425885e-010
4.689839660804198e-001	-5.930421e-001	-6.920744e-010	-8.402071e-010
4.710319660804219e-001	-5.868981e-001	-6.901239e-010	-8.376314e-010
4.730799660804239e-001	-5.807541e-001	-6.880173e-010	-8.348531e-010
4.751279660804260e-001	-5.746101e-001	-6.858038e-010	-8.319222e-010
4.771759660804280e-001	-5.684661e-001	-6.834497e-010	-8.288499e-010
4.792239660804301e-001	-5.623221e-001	-6.809767e-010	-8.256289e-010
4.812719660804321e-001	-5.561781e-001	-6.784002e-010	-8.222746e-010
4.833199660804342e-001	-5.500341e-001	-6.757288e-010	-8.188246e-010
4.853679660804362e-001	-5.438901e-001	-6.729658e-010	-8.152679e-010
4.874159660804383e-001	-5.377461e-001	-6.701232e-010	-8.115850e-010
4.894639660804403e-001	-5.316021e-001	-6.672381e-010	-8.078451e-010
4.915119660804423e-001	-5.254581e-001	-6.642646e-010	-8.040327e-010
4.935599660804444e-001	-5.193141e-001	-6.612269e-010	-8.001248e-010
4.956079660804464e-001	-5.131701e-001	-6.581554e-010	-7.961825e-010
4.976559660804485e-001	-5.070261e-001	-6.550413e-010	-7.921831e-010
4.997039660804505e-001	-5.008821e-001	-6.518693e-010	-7.881264e-010
5.017519660804040e-001	-4.947381e-001	-6.486789e-010	-7.840200e-010
5.037999660803492e-001	-4.885941e-001	-6.454716e-010	-7.798813e-010
5.058479660802944e-001	-4.824501e-001	-6.422049e-010	-7.757444e-010
5.078959660802396e-001	-4.763061e-001	-6.389229e-010	-7.715465e-010
5.099439660801848e-001	-4.701621e-001	-6.356409e-010	-7.673333e-010
5.119919660801300e-001	-4.640181e-001	-6.323436e-010	-7.631201e-010
5.140399660800752e-001	-4.578741e-001	-6.290310e-010	-7.588764e-010
5.160879660800204e-001	-4.517301e-001	-6.257048e-010	-7.546345e-010
5.181359660799656e-001	-4.455861e-001	-6.223754e-010	-7.503737e-010
5.201839660799108e-001	-4.394421e-001	-6.190476e-010	-7.461148e-010
5.222319660798560e-001	-4.332981e-001	-6.157198e-010	-7.418710e-010
5.242799660798012e-001	-4.271541e-001	-6.123768e-010	-7.376121e-010
5.263279660797464e-001	-4.210101e-001	-6.090490e-010	-7.333531e-010
5.283759660796916e-001	-4.148661e-001	-6.057364e-010	-7.291094e-010
5.304239660796368e-001	-4.087221e-001	-6.024254e-010	-7.248827e-010
5.324719660795820e-001	-4.025781e-001	-5.991114e-010	-7.206677e-010
5.345199660795272e-001	-3.964341e-001	-5.957988e-010	-7.164698e-010
5.365679660794724e-001	-3.902901e-001	-5.925168e-010	-7.122719e-010
5.386159660794176e-001	-3.841461e-001	-5.892501e-010	-7.080893e-010
5.406639660793629e-001	-3.780021e-001	-5.859986e-010	-7.039219e-010
5.427119660793081e-001	-3.718581e-001	-5.827471e-010	-6.997850e-010
5.447599660792533e-001	-3.657141e-001	-5.794970e-010	-6.956804e-010
5.468079660791985e-001	-3.595701e-001	-5.762900e-010	-6.915571e-010
5.488559660791437e-001	-3.534261e-001	-5.730995e-010	-6.874813e-010
5.509039660790889e-001	-3.472821e-001	-5.698939e-010	-6.834360e-010
5.529519660790341e-001	-3.411381e-001	-5.667340e-010	-6.794060e-010
5.549999660789793e-001	-3.349941e-001	-5.636046e-010	-6.753913e-010
5.570479660789245e-001	-3.288501e-001	-5.604600e-010	-6.714071e-010
5.590959660788697e-001	-3.227061e-001	-5.573473e-010	-6.674398e-010
5.611439660788149e-001	-3.165621e-001	-5.542623e-010	-6.635150e-010
5.631919660787601e-001	-3.104181e-001	-5.511788e-010	-6.596071e-010
5.652399660787053e-001	-3.042741e-001	-5.481258e-010	-6.557145e-010
5.672879660786505e-001	-2.981301e-001	-5.451033e-010	-6.518830e-010
5.693359660785957e-001	-2.919861e-001	-5.420960e-010	-6.480514e-010
5.713839660785409e-001	-2.858421e-001	-5.391193e-010	-6.442351e-010
5.734319660784861e-001	-2.796981e-001	-5.361439e-010	-6.404662e-010
5.754799660784313e-001	-2.735541e-001	-5.331812e-010	-6.367247e-010
5.775279660783765e-001	-2.674101e-001	-5.302655e-010	-6.330153e-010
5.795759660783217e-001	-2.612661e-001	-5.273499e-010	-6.293211e-010
5.816239660782669e-001	-2.551221e-001	-5.244648e-010	-6.256575e-010
5.836719660782122e-001	-2.489781e-001	-5.216108e-010	-6.220404e-010
5.857199660781574e-001	-2.428341e-001	-5.187556e-010	-6.184218e-010
5.877679660781026e-001	-2.366901e-001	-5.159468e-010	-6.148497e-010
5.898159660780478e-001	-2.305461e-001	-5.131533e-010	-6.112929e-010
